Freq.	V(vo)/V(vi)
1.00000000000000e+003	3.10844291907628e+001,-4.03076621041491e-002
1.00230523807790e+003	3.10844289630177e+001,-4.04005805833918e-002
1.00461579027840e+003	3.10844287342273e+001,-4.04937132599370e-002
1.00693166885180e+003	3.10844285043867e+001,-4.05870606275474e-002
1.00925288607668e+003	3.10844282734679e+001,-4.06806231810635e-002
1.01157945425990e+003	3.10844280414890e+001,-4.07744014165863e-002
1.01391138573668e+003	3.10844278084569e+001,-4.08683958313305e-002
1.01624869287070e+003	3.10844275743307e+001,-4.09626069235360e-002
1.01859138805412e+003	3.10844273391302e+001,-4.10570351927434e-002
1.02093948370768e+003	3.10844271028379e+001,-4.11516811395525e-002
1.02329299228075e+003	3.10844268654372e+001,-4.12465452657175e-002
1.02565192625141e+003	3.10844266269581e+001,-4.13416280742709e-002
1.02801629812647e+003	3.10844263873838e+001,-4.14369300692827e-002
1.03038612044162e+003	3.10844261467207e+001,-4.15324517560462e-002
1.03276140576140e+003	3.10844259049289e+001,-4.16281936408969e-002
1.03514216667934e+003	3.10844256620032e+001,-4.17241562314293e-002
1.03752841581801e+003	3.10844254179738e+001,-4.18203400365003e-002
1.03992016582906e+003	3.10844251728114e+001,-4.19167455659850e-002
1.04231742939330e+003	3.10844249265349e+001,-4.20133733310584e-002
1.04472021922080e+003	3.10844246791027e+001,-4.21102238439174e-002
1.04712854805090e+003	3.10844244304991e+001,-4.22072976180383e-002
1.04954242865232e+003	3.10844241808121e+001,-4.23045951682557e-002
1.05196187382322e+003	3.10844239299309e+001,-4.24021170101655e-002
1.05438689639126e+003	3.10844236778970e+001,-4.24998636609225e-002
1.05681750921366e+003	3.10844234247284e+001,-4.25978356388122e-002
1.05925372517729e+003	3.10844231703617e+001,-4.26960334630952e-002
1.06169555719872e+003	3.10844229148138e+001,-4.27944576544471e-002
1.06414301822431e+003	3.10844226581033e+001,-4.28931087347453e-002
1.06659612123026e+003	3.10844224002133e+001,-4.29919872269765e-002
1.06905487922266e+003	3.10844221411147e+001,-4.30910936552989e-002
1.07151930523761e+003	3.10844218808367e+001,-4.31904285452386e-002
1.07398941234124e+003	3.10844216193741e+001,-4.32899924234378e-002
1.07646521362983e+003	3.10844213566628e+001,-4.33897858175935e-002
1.07894672222983e+003	3.10844210927792e+001,-4.34898092570015e-002
1.08143395129794e+003	3.10844208276472e+001,-4.35900632717619e-002
1.08392691402120e+003	3.10844205613197e+001,-4.36905483935496e-002
1.08642562361706e+003	3.10844202937089e+001,-4.37912651549148e-002
1.08893009333343e+003	3.10844200248917e+001,-4.38922140899793e-002
1.09144033644875e+003	3.10844197548499e+001,-4.39933957339446e-002
1.09395636627209e+003	3.10844194835434e+001,-4.40948106231467e-002
1.09647819614318e+003	3.10844192109776e+001,-4.41964592952858e-002
1.09900583943252e+003	3.10844189371932e+001,-4.42983422893997e-002
1.10153930954141e+003	3.10844186621150e+001,-4.44004601454439e-002
1.10407861990207e+003	3.10844183857831e+001,-4.45028134049435e-002
1.10662378397766e+003	3.10844181081684e+001,-4.46054026104759e-002
1.10917481526240e+003	3.10844178292540e+001,-4.47082283059032e-002
1.11173172728159e+003	3.10844175490800e+001,-4.48112910365034e-002
1.11429453359173e+003	3.10844172615814e+001,-4.49145913410291e-002
1.11686324778056e+003	3.10844169787887e+001,-4.50181297821996e-002
1.11943788346715e+003	3.10844166947067e+001,-4.51219069015039e-002
1.12201845430196e+003	3.10844164093184e+001,-4.52259232491011e-002
1.12460497396692e+003	3.10844161226054e+001,-4.53301793764171e-002
1.12719745617551e+003	3.10844158345617e+001,-4.54346758361818e-002
1.12979591467279e+003	3.10844155452155e+001,-4.55394131824999e-002
1.13240036323555e+003	3.10844152545035e+001,-4.56443919704867e-002
1.13501081567231e+003	3.10844149624304e+001,-4.57496127567734e-002
1.13762728582343e+003	3.10844146690601e+001,-4.58550760993316e-002
1.14024978756117e+003	3.10844143743165e+001,-4.59607825571272e-002
1.14287833478977e+003	3.10844140782052e+001,-4.60667326906130e-002
1.14551294144553e+003	3.10844137807428e+001,-4.61729270615672e-002
1.14815362149688e+003	3.10844134818878e+001,-4.62793662328930e-002
1.15080038894443e+003	3.10844131816573e+001,-4.63860507689619e-002
1.15345325782109e+003	3.10844128800571e+001,-4.64929812354124e-002
1.15611224219210e+003	3.10844125770688e+001,-4.66001581991179e-002
1.15877735615512e+003	3.10844122726504e+001,-4.67075822281895e-002
1.16144861384034e+003	3.10844119668428e+001,-4.68152538922890e-002
1.16412602941049e+003	3.10844116596275e+001,-4.69231737622183e-002
1.16680961706096e+003	3.10844113509978e+001,-4.70313424101304e-002
1.16949939101987e+003	3.10844110409354e+001,-4.71397604094618e-002
1.17219536554813e+003	3.10844107294578e+001,-4.72484283350761e-002
1.17489755493953e+003	3.10844104164989e+001,-4.73573467629161e-002
1.17760597352080e+003	3.10844101021465e+001,-4.74665162707080e-002
1.18032063565173e+003	3.10844097863110e+001,-4.75759374369830e-002
1.18304155572516e+003	3.10844094690451e+001,-4.76856108420286e-002
1.18576874816716e+003	3.10844091502832e+001,-4.77955370671172e-002
1.18850222743701e+003	3.10844088300652e+001,-4.79057166951778e-002
1.19124200802737e+003	3.10844085083727e+001,-4.80161503103068e-002
1.19398810446427e+003	3.10844081851753e+001,-4.81268384979121e-002
1.19674053130724e+003	3.10844078605248e+001,-4.82377818449985e-002
1.19949930314937e+003	3.10844075343675e+001,-4.83489809396049e-002
1.20226443461741e+003	3.10844072066844e+001,-4.84604363712313e-002
1.20503594037179e+003	3.10844068774799e+001,-4.85721487308070e-002
1.20781383510678e+003	3.10844065467717e+001,-4.86841186106629e-002
1.21059813355048e+003	3.10844062145519e+001,-4.87963466044198e-002
1.21338885046497e+003	3.10844058807895e+001,-4.89088333069959e-002
1.21618600064636e+003	3.10844055454668e+001,-4.90215793147183e-002
1.21898959892486e+003	3.10844052086226e+001,-4.91345852254666e-002
1.22179966016487e+003	3.10844048701912e+001,-4.92478516381737e-002
1.22461619926504e+003	3.10844045302251e+001,-4.93613791535177e-002
1.22743923115840e+003	3.10844041886689e+001,-4.94751683732309e-002
1.23026877081238e+003	3.10844038455383e+001,-4.95892199006924e-002
1.23310483322890e+003	3.10844035008397e+001,-4.97035343405174e-002
1.23594743344450e+003	3.10844031545520e+001,-4.98181122987582e-002
1.23879658653036e+003	3.10844028066340e+001,-4.99329543827537e-002
1.24165230759241e+003	3.10844024571601e+001,-5.00480612016087e-002
1.24451461177138e+003	3.10844021060408e+001,-5.01634333653171e-002
1.24738351424294e+003	3.10844017533146e+001,-5.02790714856827e-002
1.25025903021771e+003	3.10844013989515e+001,-5.03949761757008e-002
1.25314117494141e+003	3.10844010429554e+001,-5.05111480498879e-002
1.25602996369487e+003	3.10844006853304e+001,-5.06275877241790e-002
1.25892541179416e+003	3.10844003260338e+001,-5.07442958157790e-002
1.26182753459066e+003	3.10843999650811e+001,-5.08612729435011e-002
1.26473634747115e+003	3.10843996024649e+001,-5.09785197275120e-002
1.26765186585784e+003	3.10843992381770e+001,-5.10960367894056e-002
1.27057410520854e+003	3.10843988721987e+001,-5.12138247521736e-002
1.27350308101666e+003	3.10843985045573e+001,-5.13318842403928e-002
1.27643880881134e+003	3.10843981352084e+001,-5.14502158798515e-002
1.27938130415752e+003	3.10843977641463e+001,-5.15688202978984e-002
1.28233058265601e+003	3.10843973913608e+001,-5.16876981233223e-002
1.28528665994361e+003	3.10843970168813e+001,-5.18068499864811e-002
1.28824955169313e+003	3.10843966406509e+001,-5.19262765189140e-002
1.29121927361353e+003	3.10843962626982e+001,-5.20459783538872e-002
1.29419584144998e+003	3.10843958829914e+001,-5.21659561259330e-002
1.29717927098395e+003	3.10843955015454e+001,-5.22862104711998e-002
1.30016957803328e+003	3.10843951183056e+001,-5.24067420270718e-002
1.30316677845229e+003	3.10843947333456e+001,-5.25275514328265e-002
1.30617088813183e+003	3.10843943465642e+001,-5.26486393286361e-002
1.30918192299940e+003	3.10843939580338e+001,-5.27700063567266e-002
1.31219989901920e+003	3.10843935676764e+001,-5.28916531603024e-002
1.31522483219223e+003	3.10843931755426e+001,-5.30135803844777e-002
1.31825673855640e+003	3.10843927815767e+001,-5.31357886755448e-002
1.32129563418657e+003	3.10843923857830e+001,-5.32582786813536e-002
1.32434153519466e+003	3.10843919881873e+001,-5.33810510514525e-002
1.32739445772973e+003	3.10843915887339e+001,-5.35041064365698e-002
1.33045441797808e+003	3.10843911874621e+001,-5.36274454892510e-002
1.33352143216332e+003	3.10843907843512e+001,-5.37510688633459e-002
1.33659551654643e+003	3.10843903793461e+001,-5.38749772140937e-002
1.33967668742593e+003	3.10843899724961e+001,-5.39991711985993e-002
1.34276496113786e+003	3.10843895637697e+001,-5.41236514752062e-002
1.34586035405594e+003	3.10843891531337e+001,-5.42484187037723e-002
1.34896288259165e+003	3.10843887406039e+001,-5.43734735458394e-002
1.35207256319427e+003	3.10843883261833e+001,-5.44988166644325e-002
1.35518941235103e+003	3.10843879098622e+001,-5.46244487240638e-002
1.35831344658715e+003	3.10843874916085e+001,-5.47503703906986e-002
1.36144468246594e+003	3.10843870714019e+001,-5.48765823318760e-002
1.36458313658892e+003	3.10843866492808e+001,-5.50030852168776e-002
1.36772882559584e+003	3.10843862251998e+001,-5.51298797162407e-002
1.37088176616484e+003	3.10843857991738e+001,-5.52569665022538e-002
1.37404197501251e+003	3.10843853711587e+001,-5.53843462485515e-002
1.37720946889394e+003	3.10843849411922e+001,-5.55120196306057e-002
1.38038426460288e+003	3.10843845092070e+001,-5.56399873250779e-002
1.38356637897177e+003	3.10843840752752e+001,-5.57682500106799e-002
1.38675582887188e+003	3.10843836393057e+001,-5.58968083671137e-002
1.38995263121334e+003	3.10843832013360e+001,-5.60256630761004e-002
1.39315680294529e+003	3.10843827613573e+001,-5.61548148207683e-002
1.39636836105593e+003	3.10843823193250e+001,-5.62842642856952e-002
1.39958732257261e+003	3.10843818752284e+001,-5.64140121572054e-002
1.40281370456195e+003	3.10843814291303e+001,-5.65440591233205e-002
1.40604752412990e+003	3.10843809809719e+001,-5.66744058733649e-002
1.40928879842186e+003	3.10843805307229e+001,-5.68050530982952e-002
1.41253754462274e+003	3.10843800784192e+001,-5.69360014909056e-002
1.41579377995707e+003	3.10843796240036e+001,-5.70672517452535e-002
1.41905752168908e+003	3.10843791674916e+001,-5.71988045572506e-002
1.42232878712281e+003	3.10843787088955e+001,-5.73306606244092e-002
1.42560759360218e+003	3.10843782481469e+001,-5.74628206455551e-002
1.42889395851109e+003	3.10843777853073e+001,-5.75952853215915e-002
1.43218789927353e+003	3.10843773203068e+001,-5.77280553545676e-002
1.43548943335364e+003	3.10843768531489e+001,-5.78611314484575e-002
1.43879857825583e+003	3.10843763808579e+001,-5.79945143039634e-002
1.44211535152486e+003	3.10843759093999e+001,-5.81282046378327e-002
1.44543977074592e+003	3.10843754357659e+001,-5.82622031540042e-002
1.44877185354475e+003	3.10843749599219e+001,-5.83965105627854e-002
1.45211161758773e+003	3.10843744819161e+001,-5.85311275764214e-002
1.45545908058195e+003	3.10843740016914e+001,-5.86660549084121e-002
1.45881426027534e+003	3.10843735192494e+001,-5.88012932741182e-002
1.46217717445671e+003	3.10843730345809e+001,-5.89368433905064e-002
1.46554784095590e+003	3.10843725476737e+001,-5.90727059761920e-002
1.46892627764385e+003	3.10843720585181e+001,-5.92088817514508e-002
1.47231250243271e+003	3.10843715671163e+001,-5.93453714382621e-002
1.47570653327588e+003	3.10843710734443e+001,-5.94821757601782e-002
1.47910838816819e+003	3.10843705774700e+001,-5.96192954423801e-002
1.48251808514594e+003	3.10843700792288e+001,-5.97567312119801e-002
1.48593564228699e+003	3.10843695786869e+001,-5.98944837975532e-002
1.48936107771090e+003	3.10843690757976e+001,-6.00325539291600e-002
1.49279440957898e+003	3.10843685706334e+001,-6.01709423391364e-002
1.49623565609442e+003	3.10843680631250e+001,-6.03096497609242e-002
1.49968483550236e+003	3.10843675532838e+001,-6.04486769299648e-002
1.50314196609001e+003	3.10843670410765e+001,-6.05880245832189e-002
1.50660706618673e+003	3.10843665264914e+001,-6.07276934594327e-002
1.51008015416413e+003	3.10843660095296e+001,-6.08676842991516e-002
1.51356124843619e+003	3.10843654901920e+001,-6.10079978444776e-002
1.51705036745932e+003	3.10843649684679e+001,-6.11486348393286e-002
1.52054752973248e+003	3.10843644443450e+001,-6.12895960292850e-002
1.52405275379728e+003	3.10843639177778e+001,-6.14308821615129e-002
1.52756605823806e+003	3.10843633888025e+001,-6.15724939852162e-002
1.53108746168201e+003	3.10843628573708e+001,-6.17144322510054e-002
1.53461698279928e+003	3.10843623234967e+001,-6.18566977114535e-002
1.53815464030302e+003	3.10843617871445e+001,-6.19992911206820e-002
1.54170045294954e+003	3.10843612482912e+001,-6.21422132346467e-002
1.54525443953840e+003	3.10843607069835e+001,-6.22854648111694e-002
1.54881661891247e+003	3.10843601631876e+001,-6.24290466096516e-002
1.55238700995807e+003	3.10843596168793e+001,-6.25729593912371e-002
1.55596563160506e+003	3.10843590680458e+001,-6.27172039188692e-002
1.55955250282694e+003	3.10843585166773e+001,-6.28617809572547e-002
1.56314764264094e+003	3.10843579627501e+001,-6.30066912728133e-002
1.56675107010813e+003	3.10843574062750e+001,-6.31519356338682e-002
1.57036280433354e+003	3.10843568472047e+001,-6.32975148103352e-002
1.57398286446620e+003	3.10843562855992e+001,-6.34434295741710e-002
1.57761126969933e+003	3.10843557213628e+001,-6.35896806986544e-002
1.58124803927037e+003	3.10843551545557e+001,-6.37362689594092e-002
1.58489319246110e+003	3.10843545851166e+001,-6.38831951333706e-002
1.58854674859776e+003	3.10843540130705e+001,-6.40304599996010e-002
1.59220872705115e+003	3.10843534383569e+001,-6.41780643386224e-002
1.59587914723672e+003	3.10843528609995e+001,-6.43260089330897e-002
1.59955802861465e+003	3.10843522809855e+001,-6.44742945673184e-002
1.60324539069002e+003	3.10843516982910e+001,-6.46229220273851e-002
1.60694125301286e+003	3.10843511128807e+001,-6.47718921011300e-002
1.61064563517825e+003	3.10843505248123e+001,-6.49212055785910e-002
1.61435855682647e+003	3.10843499340133e+001,-6.50708632510991e-002
1.61808003764305e+003	3.10843493404611e+001,-6.52208659120036e-002
1.62181009735891e+003	3.10843487442005e+001,-6.53712143567682e-002
1.62554875575047e+003	3.10843481451726e+001,-6.55219093822587e-002
1.62929603263970e+003	3.10843475433873e+001,-6.56729517874642e-002
1.63305194789432e+003	3.10843469388219e+001,-6.58243423730753e-002
1.63681652142779e+003	3.10843463314845e+001,-6.59760819417661e-002
1.64058977319952e+003	3.10843457212813e+001,-6.61281712976833e-002
1.64437172321491e+003	3.10843451083165e+001,-6.62806112474898e-002
1.64816239152549e+003	3.10843444924951e+001,-6.64334025990415e-002
1.65196179822900e+003	3.10843438738505e+001,-6.65865461625390e-002
1.65576996346951e+003	3.10843432523578e+001,-6.67400427498069e-002
1.65958690743754e+003	3.10843426279689e+001,-6.68938931744405e-002
1.66341265037015e+003	3.10843420007291e+001,-6.70480982523061e-002
1.66724721255104e+003	3.10843413705773e+001,-6.72026588007033e-002
1.67109061431069e+003	3.10843407375363e+001,-6.73575756391657e-002
1.67494287602642e+003	3.10843401015454e+001,-6.75128495887652e-002
1.67880401812254e+003	3.10843394626258e+001,-6.76684814728147e-002
1.68267406107045e+003	3.10843388207760e+001,-6.78244721164257e-002
1.68655302538872e+003	3.10843381759352e+001,-6.79808223463618e-002
1.69044093164324e+003	3.10843375281253e+001,-6.81375329916415e-002
1.69433780044731e+003	3.10843368773313e+001,-6.82946048830425e-002
1.69824365246172e+003	3.10843362235406e+001,-6.84520388532610e-002
1.70215850839493e+003	3.10843355667509e+001,-6.86098357369602e-002
1.70608238900310e+003	3.10843349068767e+001,-6.87679963703714e-002
1.71001531509027e+003	3.10843342439755e+001,-6.89265215923205e-002
1.71395730750840e+003	3.10843335780097e+001,-6.90854122429903e-002
1.71790838715757e+003	3.10843329089869e+001,-6.92446691648699e-002
1.72186857498598e+003	3.10843322368715e+001,-6.94042932021363e-002
1.72583789199018e+003	3.10843315616480e+001,-6.95642852010076e-002
1.72981635921508e+003	3.10843308833253e+001,-6.97246460097576e-002
1.73380399775412e+003	3.10843302018544e+001,-6.98853764783589e-002
1.73780082874935e+003	3.10843295172448e+001,-7.00464774590005e-002
1.74180687339159e+003	3.10843288294682e+001,-7.02079498056763e-002
1.74582215292048e+003	3.10843281385355e+001,-7.03697943745106e-002
1.74984668862463e+003	3.10843274444187e+001,-7.05320120234392e-002
1.75388050184174e+003	3.10843267470566e+001,-7.06946036122220e-002
1.75792361395867e+003	3.10843260465161e+001,-7.08575700031723e-002
1.76197604641161e+003	3.10843253427246e+001,-7.10209120599671e-002
1.76603782068614e+003	3.10843246356907e+001,-7.11846306486379e-002
1.77010895831740e+003	3.10843239253851e+001,-7.13487266370504e-002
1.77418948089014e+003	3.10843232117952e+001,-7.15132008951901e-002
1.77827941003890e+003	3.10843224948937e+001,-7.16780542948146e-002
1.78237876744807e+003	3.10843217746993e+001,-7.18432877101338e-002
1.78648757485203e+003	3.10843210511975e+001,-7.20089020169840e-002
1.79060585403527e+003	3.10843203243381e+001,-7.21748980932353e-002
1.79473362683250e+003	3.10843195941518e+001,-7.23412768190927e-002
1.79887091512876e+003	3.10843188605766e+001,-7.25080390763662e-002
1.80301774085954e+003	3.10843181236195e+001,-7.26751857492142e-002
1.80717412601090e+003	3.10843173832534e+001,-7.28427177236761e-002
1.81134009261958e+003	3.10843166394869e+001,-7.30106358879948e-002
1.81551566277311e+003	3.10843158922558e+001,-7.31789411321325e-002
1.81970085860996e+003	3.10843151416155e+001,-7.33476343486473e-002
1.82389570231961e+003	3.10843143874672e+001,-7.35167164315079e-002
1.82810021614272e+003	3.10843136298777e+001,-7.36861882773242e-002
1.83231442237119e+003	3.10843128687600e+001,-7.38560507842447e-002
1.83653834334832e+003	3.10843121041683e+001,-7.40263048530816e-002
1.84077200146893e+003	3.10843113360158e+001,-7.41969513860688e-002
1.84501541917945e+003	3.10843105643341e+001,-7.43679912880679e-002
1.84926861897805e+003	3.10843097890461e+001,-7.45394254655261e-002
1.85353162341478e+003	3.10843090102427e+001,-7.47112548277573e-002
1.85780445509167e+003	3.10843082278120e+001,-7.48834802852283e-002
1.86208713666284e+003	3.10843074417622e+001,-7.50561027510609e-002
1.86637969083464e+003	3.10843066521109e+001,-7.52291231405332e-002
1.87068214036577e+003	3.10843058587937e+001,-7.54025423706447e-002
1.87499450806739e+003	3.10843050618298e+001,-7.55763613608995e-002
1.87931681680324e+003	3.10843042611782e+001,-7.57505810326404e-002
1.88364908948977e+003	3.10843034568348e+001,-7.59252023095033e-002
1.88799134909627e+003	3.10843026487575e+001,-7.61002261171430e-002
1.89234361864495e+003	3.10843018369527e+001,-7.62756533833871e-002
1.89670592121112e+003	3.10843010214158e+001,-7.64514850383343e-002
1.90107827992327e+003	3.10843002021289e+001,-7.66277220141059e-002
1.90546071796322e+003	3.10842993790506e+001,-7.68043652448578e-002
1.90985325856621e+003	3.10842985521644e+001,-7.69814156670782e-002
1.91425592502106e+003	3.10842977214513e+001,-7.71588742192185e-002
1.91866874067026e+003	3.10842968869305e+001,-7.73367418422599e-002
1.92309172891013e+003	3.10842960485349e+001,-7.75150194788817e-002
1.92752491319091e+003	3.10842952062844e+001,-7.76937080743451e-002
1.93196831701689e+003	3.10842943541227e+001,-7.78728085627555e-002
1.93642196394658e+003	3.10842935040939e+001,-7.80523219197819e-002
1.94088587759275e+003	3.10842926501075e+001,-7.82322490837599e-002
1.94536008162263e+003	3.10842917922163e+001,-7.84125910088627e-002
1.94984459975802e+003	3.10842909303555e+001,-7.85933486508868e-002
1.95433945577536e+003	3.10842900644936e+001,-7.87745229679985e-002
1.95884467350596e+003	3.10842891946478e+001,-7.89561149208104e-002
1.96336027683602e+003	3.10842883208005e+001,-7.91381254719735e-002
1.96788628970681e+003	3.10842874428625e+001,-7.93205555860705e-002
1.97242273611482e+003	3.10842865609188e+001,-7.95034062305864e-002
1.97696964011183e+003	3.10842856748946e+001,-7.96866783746190e-002
1.98152702580507e+003	3.10842847847924e+001,-7.98703729898360e-002
